! ListType=Lin
# MHz S DB R 50
950.0000000 -45.2419702 -86.3912215
950.5025126 -45.1257732 -86.8023116
951.0050251 -44.9550768 -87.6237241
951.5075377 -44.8894980 -89.1203137
952.0100503 -44.6393023 -89.5866324
952.5125628 -44.7837292 -90.8899239
953.0150754 -44.4871210 -93.2731894
953.5175879 -44.7620446 -89.7467612
954.0201005 -44.5668123 -90.8921410
954.5226131 -44.4036550 -90.7988433
955.0251256 -44.2077390 -95.6942100
955.5276382 -44.1850584 -95.9718492
956.0301508 -43.9980455 -96.2683727
956.5326633 -43.9280925 -96.9702343
957.0351759 -43.8813503 -97.4787837
957.5376884 -43.8400499 -99.0697999
958.0402010 -43.7432579 -100.1005883
958.5427136 -43.6836736 -100.2832292
959.0452261 -43.5194619 -101.3381115
959.5477387 -43.3467887 -102.2123941
960.0502513 -43.3244314 -103.5017360
960.5527638 -43.2486121 -103.7831088
961.0552764 -43.0670557 -105.0582016
961.5577889 -43.0156191 -105.6236849
962.0603015 -42.8440757 -106.4369974
962.5628141 -42.8423426 -107.2867301
963.0653266 -42.7600800 -107.9350151
963.5678392 -42.6067218 -109.6347469
964.0703518 -42.5680055 -110.4438103
964.5728643 -42.3297938 -110.6907505
965.0753769 -42.2794234 -111.9375854
965.5778894 -42.1973957 -112.6401383
966.0804020 -42.1089458 -113.4662571
966.5829146 -41.9961248 -114.6925095
967.0854271 -41.7756043 -115.6516093
967.5879397 -41.6483657 -116.1136207
968.0904523 -41.4529620 -117.0976047
968.5929648 -41.4785835 -117.9132665
969.0954774 -41.3370152 -118.9219874
969.5979899 -41.1628970 -119.2583957
970.1005025 -40.9484222 -120.3575832
970.6030151 -40.7265109 -123.5940808
971.1055276 -40.9692813 -121.7536839
971.6080402 -40.7697598 -120.5098107
972.1105528 -40.3154457 -125.1679323
972.6130653 -39.7746191 -127.5153187
973.1155779 -39.9259279 -123.4143653
973.6180905 -39.9927342 -127.6540423
974.1206030 -39.7435804 -128.5155144
974.6231156 -39.6514696 -129.1132370
975.1256281 -39.4592006 -129.9464352
975.6281407 -39.3202268 -131.0087335
976.1306533 -39.2077566 -131.9759881
976.6331658 -39.0513786 -132.7432734
977.1356784 -38.9467333 -133.7091333
977.6381910 -38.8434587 -134.6063010
978.1407035 -38.6457579 -135.8568263
978.6432161 -38.5306715 -136.6116588
979.1457286 -38.4229402 -137.4479117
979.6482412 -38.2677220 -138.4102909
980.1507538 -38.1225857 -139.2809111
980.6532663 -37.9727059 -139.9003302
981.1557789 -37.7876042 -141.1873437
981.6582915 -37.6949207 -142.2182890
982.1608040 -37.5266215 -143.2122883
982.6633166 -37.3236822 -143.5610202
983.1658291 -37.1447331 -144.9617341
983.6683417 -37.0190753 -145.8668824
984.1708543 -36.8531439 -146.8238675
984.6733668 -36.6467307 -147.7100698
985.1758794 -36.5018113 -148.6069896
985.6783920 -36.3063085 -149.3876300
986.1809045 -36.1547333 -150.3143459
986.6834171 -36.0394960 -151.2014903
987.1859296 -35.8423598 -152.6813181
987.6884422 -35.6536618 -153.3248881
988.1909548 -35.4413189 -154.1103685
988.6934673 -35.2398831 -155.0594586
989.1959799 -34.9498764 -155.8419574
989.6984925 -34.7543037 -158.5438320
990.2010050 -34.6477638 -159.1381127
990.7035176 -34.7434474 -156.2234226
991.2060302 -34.2849658 -159.4629088
991.7085427 -34.0832452 -160.9621779
992.2110553 -33.8756262 -162.0715172
992.7135678 -33.6720153 -163.3950739
993.2160804 -33.4373283 -164.0851818
993.7185930 -33.2598138 -165.3854821
994.2211055 -33.0212069 -166.2799092
994.7236181 -32.7826888 -167.2897121
995.2261307 -32.5382623 -168.3479210
995.7286432 -32.3259274 -169.5159504
996.2311558 -32.0692062 -170.5736923
996.7336683 -31.8585138 -171.5357379
997.2361809 -31.6004922 -172.3415256
997.7386935 -31.3442331 -173.4994849
998.2412060 -31.0434227 -174.7354848
998.7437186 -30.7969395 -175.5743841
999.2462312 -30.4802143 -176.9071919
999.7487437 -30.2288440 -177.6526972
1000.2512563 -29.9321286 -178.6613250
1000.7537688 -29.6119313 -180.0463867
1001.2562814 -29.2986320 -180.9964163
1001.7587940 -28.9750897 -181.9281422
1002.2613065 -28.6484483 -182.9142309
1002.7638191 -28.3303507 -184.1790696
1003.2663317 -27.9585515 -185.2278946
1003.7688442 -27.5801009 -186.2789672
1004.2713568 -27.1921369 -187.2623884
1004.7738693 -26.7653643 -188.4447021
1005.2763819 -26.3470558 -189.6491071
1005.7788945 -25.8953529 -190.7815016
1006.2814070 -25.3764849 -190.9773471
1006.7839196 -24.7496623 -191.3025056
1007.2864322 -24.5498252 -194.9233426
1007.7889447 -24.0360771 -196.9368515
1008.2914573 -23.5319180 -198.2222600
1008.7939698 -22.4667191 -198.9920896
1009.2964824 -21.7785700 -198.7774823
1009.7989950 -21.2989965 -201.5906425
1010.3015075 -20.5350942 -202.8675624
1010.8040201 -19.7014502 -204.4702941
1011.3065327 -18.7768492 -206.4214869
1011.8090452 -17.7469463 -208.5277210
1012.3115578 -16.5619818 -211.0500008
1012.8140704 -15.2164488 -214.0382956
1013.3165829 -13.6518584 -217.7161160
1013.8190955 -11.7533779 -222.9435982
1014.3216080  -9.4465329 -230.6687838
1014.8241206  -6.6222903 -243.9651135
1015.3266332  -3.6850640 -269.4895306
1015.8291457  -3.0312067 -309.2405053
1016.3316583  -5.5804773 -340.4555181
1016.8341709  -8.5352115 -356.8910109
1017.3366834 -11.0137251 -366.1524050
1017.8391960 -13.0253122 -371.9962525
1018.3417085 -14.6995297 -376.1575357
1018.8442211 -16.1164846 -379.3768141
1019.3467337 -17.3486086 -382.0111970
1019.8492462 -18.4185447 -384.0944130
1020.3517588 -19.3969683 -386.1194103
1020.8542714 -20.2669413 -387.7395622
1021.3567839 -21.0568022 -389.4019171
1021.8592965 -21.7916704 -390.8153379
1022.3618090 -22.4558206 -392.3156009
1022.8643216 -23.0883648 -393.7133537
1023.3668342 -23.6862781 -394.8352779
1023.8693467 -24.2376926 -396.1895521
1024.3718593 -24.7650996 -397.3600565
1024.8743719 -25.2429650 -398.4789443
1025.3768844 -25.7451110 -400.0494162
1025.8793970 -26.1873366 -400.7944264
1026.3819095 -26.5879010 -401.5529339
1026.8844221 -26.9446361 -403.0803828
1027.3869347 -27.3408846 -404.2320807
1027.8894472 -27.7377420 -405.1532277
1028.3919598 -28.0737464 -406.1185570
1028.8944724 -28.4281079 -407.0956626
1029.3969849 -28.7860913 -408.1785994
1029.8994975 -29.0699438 -409.2754545
1030.4020101 -29.3875400 -410.3423402
1030.9045226 -29.6964269 -411.2469507
1031.4070352 -29.9720194 -412.1596181
1031.9095477 -30.2609355 -413.1604404
1032.4120603 -30.5194185 -414.2473445
1032.9145729 -30.7924437 -415.0420204
1033.4170854 -31.0670042 -415.9351204
1033.9195980 -31.3026872 -416.9498962
1034.4221106 -31.5438113 -418.0964679
1034.9246231 -31.7799846 -419.1209591
1035.4271357 -31.9658504 -420.1013622
1035.9296482 -32.1813083 -421.3154400
1036.4321608 -32.4324988 -422.0845159
1036.9346734 -32.6842132 -423.1734294
1037.4371859 -32.9449455 -423.5094780
1037.9396985 -33.1754846 -424.2627118
1038.4422111 -33.3518525 -425.4298628
1038.9447236 -33.5423265 -426.3325995
1039.4472362 -33.7401063 -427.2264640
1039.9497487 -33.8941271 -428.1016251
1040.4522613 -34.1174665 -429.0725797
1040.9547739 -34.2848344 -429.7974764
1041.4572864 -34.4869726 -430.8108496
1041.9597990 -34.6859447 -431.9978113
1042.4623116 -34.8430423 -432.2700376
1042.9648241 -34.8297585 -431.9891174
1043.4673367 -35.3006492 -433.5136464
1043.9698492 -35.3824943 -435.5345492
1044.4723618 -35.7524506 -427.6991420
1044.9748744 -35.4017070 -429.7138996
1045.4773869 -35.9146205 -437.1055352
1045.9798995 -36.0771197 -437.0415234
1046.4824121 -36.1327514 -437.4783587
1046.9849246 -36.3249873 -439.0804354
1047.4874372 -36.4248776 -439.6348585
1047.9899497 -36.5490425 -440.3684579
1048.4924623 -36.7523446 -441.0976284
1048.9949749 -36.8442225 -442.0827156
1049.4974874 -36.9922557 -442.5291101
1050.0000000 -37.0672548 -443.1964581
