! ListType=Lin
# MHz S DB R 50
200.0000000 -67.6007006 125.2554004
200.6688963 -67.6521495 124.5466459
201.3377926 -67.5889604 122.3041905
202.0066890 -67.4682799 121.5614315
202.6755853 -67.3904054 119.0638710
203.3444816 -67.1926759 118.4142148
204.0133779 -67.2909655 116.8437920
204.6822742 -67.0798434 115.4424107
205.3511706 -67.0595858 114.4889025
206.0200669 -66.9426668 112.7232556
206.6889632 -66.9041502 111.8545245
207.3578595 -66.7411033 109.4333648
208.0267559 -66.7092300 108.1775536
208.6956522 -66.6275008 107.0748441
209.3645485 -66.5514967 105.7161249
210.0334448 -66.4935747 104.3463104
210.7023411 -66.4402516 103.2280196
211.3712375 -66.3066852 101.2565372
212.0401338 -66.1347166  99.4498192
212.7090301 -66.1353573  99.2400785
213.3779264 -66.0213027  97.6438168
214.0468227 -66.0544442  96.5304517
214.7157191 -65.8605867  94.6295287
215.3846154 -65.9081297  93.4747598
216.0535117 -65.8333729  92.8660255
216.7224080 -65.6986394  90.3342821
217.3913043 -65.6504543  89.2711272
218.0602007 -65.5555497  88.3233723
218.7290970 -65.4216168  87.2073926
219.3979933 -65.4451967  85.1584239
220.0668896 -65.3360653  83.5818952
220.7357860 -65.2125845  82.3265158
221.4046823 -65.1288857  80.6821513
222.0735786 -65.0086828  79.5525711
222.7424749 -65.0351411  78.5427452
223.4113712 -64.8843034  76.9218161
224.0802676 -64.7967284  75.2528063
224.7491639 -64.7195887  73.7684667
225.4180602 -64.6763176  72.4526587
226.0869565 -64.6581568  71.8924774
226.7558528 -64.4826063  70.1368782
227.4247492 -64.4091708  68.6409805
228.0936455 -64.2829174  66.8219264
228.7625418 -64.2626757  65.5818399
229.4314381 -64.1066616  64.1692741
230.1003344 -64.0732489  62.9985737
230.7692308 -63.9413089  61.8192950
231.4381271 -63.9317049  60.2636724
232.1070234 -63.8070260  58.9597055
232.7759197 -63.7933180  56.9411971
233.4448161 -63.4916325  56.0148197
234.1137124 -63.6174299  54.9672164
234.7826087 -63.3645145  53.7128574
235.4515050 -63.3807608  52.4671762
236.1204013 -63.2376877  51.0091944
236.7892977 -63.2152977  49.4154805
237.4581940 -62.9942299  47.9929900
238.1270903 -63.0452623  46.6577071
238.7959866 -62.9213065  45.3824048
239.4648829 -62.7273343  44.4517367
240.1337793 -62.6959434  42.5250349
240.8026756 -62.5539512  41.1810394
241.4715719 -62.5101392  39.8366455
242.1404682 -62.3434785  38.9929028
242.8093645 -62.2429114  37.2322490
243.4782609 -62.1290711  35.5476187
244.1471572 -62.0717593  34.0052775
244.8160535 -61.9443249  33.2775970
245.4849498 -61.8185979  31.6586300
246.1538462 -61.7411472  30.2133296
246.8227425 -61.6941058  29.1558673
247.4916388 -61.5491856  27.3961390
248.1605351 -61.4687672  26.2609239
248.8294314 -61.2818980  24.8892901
249.4983278 -61.2550628  23.1368968
250.1672241 -61.1545733  21.7767171
250.8361204 -60.9524471  20.6930534
251.5050167 -60.8651839  19.8671441
252.1739130 -60.8583003  18.0523629
252.8428094 -60.7273093  17.2858921
253.5117057 -60.6199273  15.0920599
254.1806020 -60.4531862  14.0708305
254.8494983 -60.3117380  12.9519864
255.5183946 -60.2131863  11.1710757
256.1872910 -60.0961047   9.9516167
256.8561873 -59.9046231   8.7492667
257.5250836 -59.8374250   7.2116981
258.1939799 -59.7364691   6.1047944
258.8628763 -59.6606167   4.7122252
259.5317726 -59.5210087   3.6837099
260.2006689 -59.3610357   1.6800002
260.8695652 -59.2487255   0.5742871
261.5384615 -59.0420566  -1.0863360
262.2073579 -58.9202158  -1.8360717
262.8762542 -58.8224962  -3.6260155
263.5451505 -58.6964914  -4.9775545
264.2140468 -58.5812848  -6.2555534
264.8829431 -58.3970264  -7.6267296
265.5518395 -58.2825572  -8.9120450
266.2207358 -58.2048049 -10.1469261
266.8896321 -58.0767585 -11.6180579
267.5585284 -57.8847411 -12.9714985
268.2274247 -57.7223378 -14.2299126
268.8963211 -57.5955387 -15.9544361
269.5652174 -57.4936312 -17.2827529
270.2341137 -57.3453021 -18.2921205
270.9030100 -57.1586804 -19.7573446
271.5719064 -57.0531357 -21.3149328
272.2408027 -56.9169785 -22.5404622
272.9096990 -56.7027587 -23.7059139
273.5785953 -56.5791106 -25.1074724
274.2474916 -56.4417176 -26.4870054
274.9163880 -56.2779768 -27.9496829
275.5852843 -56.1285036 -29.6013906
276.2541806 -55.9528143 -30.8203844
276.9230769 -55.8369041 -31.9694450
277.5919732 -55.6534463 -33.5122860
278.2608696 -55.5252352 -34.6784912
278.9297659 -55.3466845 -36.2965266
279.5986622 -55.1675282 -37.5973527
280.2675585 -55.0356080 -38.7431411
280.9364548 -54.8566502 -40.2582612
281.6053512 -54.7052677 -41.6548416
282.2742475 -54.5195943 -43.0987603
282.9431438 -54.3769798 -44.1903826
283.6120401 -54.1535967 -45.6738655
284.2809365 -54.0140965 -46.9879167
284.9498328 -53.8391843 -48.4309901
285.6187291 -53.5833448 -49.8690944
286.2876254 -53.4610625 -51.2346207
286.9565217 -53.3011087 -52.2704934
287.6254181 -53.0853111 -53.9566434
288.2943144 -52.8708424 -55.5511830
288.9632107 -52.6992020 -56.7448052
289.6321070 -52.4904117 -57.9305484
290.3010033 -52.3214803 -59.4363321
290.9698997 -52.0619006 -60.8193768
291.6387960 -51.8901823 -62.1099565
292.3076923 -51.6991972 -63.4746693
292.9765886 -51.5107848 -64.9698676
293.6454849 -51.2614769 -66.2317029
294.3143813 -51.0482572 -67.5485402
294.9832776 -50.8414010 -68.9193366
295.6521739 -50.6174507 -70.5264275
296.3210702 -50.3804388 -71.5954527
296.9899666 -50.1624962 -72.9884248
297.6588629 -49.8943468 -74.5247517
298.3277592 -49.6768971 -75.9606829
298.9966555 -49.4055922 -77.5282520
299.6655518 -49.1594778 -78.7349561
300.3344482 -48.8992665 -80.2171299
301.0033445 -48.6569768 -81.6500541
301.6722408 -48.3777252 -82.9510167
302.3411371 -48.0915091 -84.3509435
303.0100334 -47.8150509 -85.8161425
303.6789298 -47.5128254 -87.2131278
304.3478261 -47.2212011 -88.5763939
305.0167224 -46.9271879 -90.0935976
305.6856187 -46.5793873 -91.4605897
306.3545151 -46.2863266 -92.8371706
307.0234114 -45.9415227 -94.3556729
307.6923077 -45.5952850 -95.8134734
308.3612040 -45.2372177 -97.2582895
309.0301003 -44.8664304 -98.6098256
309.6989967 -44.4859720 -100.1609921
310.3678930 -44.0855323 -101.5913598
311.0367893 -43.6756709 -103.0551338
311.7056856 -43.2410269 -104.5770418
312.3745819 -42.7952194 -106.1121186
313.0434783 -42.3169563 -107.5832876
313.7123746 -41.8308473 -109.0700001
314.3812709 -41.3072367 -110.7065717
315.0501672 -40.7546367 -112.2402206
315.7190635 -40.1762170 -113.8268273
316.3879599 -39.5546924 -115.5115827
317.0568562 -38.8910753 -117.1721591
317.7257525 -38.1760799 -118.8999934
318.3946488 -37.4105478 -120.6812361
319.0635452 -36.5584112 -122.5657444
319.7324415 -35.6379622 -124.5381956
320.4013378 -34.6010894 -126.7102917
321.0702341 -33.4415258 -129.0486104
321.7391304 -32.1104921 -131.7083704
322.4080268 -30.5683209 -134.8665567
323.0769231 -28.6332639 -138.9071717
323.7458194 -26.3871106 -144.9128854
324.4147157 -23.3232235 -154.7075689
325.0836120 -19.2783127 -173.3949621
325.7525084 -16.2024900 -220.2623198
326.4214047 -19.2170844 -267.0564487
327.0903010 -23.2101582 -286.8792819
327.7591973 -26.2170457 -296.3431416
328.4280936 -28.5091601 -302.0823949
329.0969900 -30.3406166 -306.1456512
329.7658863 -31.8573167 -309.3111428
330.4347826 -33.1502356 -311.9746190
331.1036789 -34.2750117 -314.3136626
331.7725753 -35.2622616 -316.4608848
332.4414716 -36.1528347 -318.4768294
333.1103679 -36.9542610 -320.3134199
333.7792642 -37.6888646 -322.0811405
334.4481605 -38.3601165 -323.7496267
335.1170569 -38.9845468 -325.4524982
335.7859532 -39.5709105 -327.0700396
336.4548495 -40.1038730 -328.6331672
337.1237458 -40.6074788 -330.1022951
337.7926421 -41.0899266 -331.6813292
338.4615385 -41.5395433 -333.1887018
339.1304348 -41.9790989 -334.6562375
339.7993311 -42.3743668 -336.2041395
340.4682274 -42.7460570 -337.5999077
341.1371237 -43.0882682 -338.7322643
341.8060201 -43.5945148 -340.1698309
342.4749164 -43.8818239 -342.7171663
343.1438127 -44.1347578 -343.3565701
343.8127090 -44.4623549 -344.5794241
344.4816054 -44.7635298 -346.0619629
345.1505017 -45.0610863 -347.4952166
345.8193980 -45.3444254 -348.7474985
346.4882943 -45.6033808 -350.0765554
347.1571906 -45.8748319 -351.5301307
347.8260870 -46.1330895 -352.9515143
348.4949833 -46.3853799 -354.2640608
349.1638796 -46.5996734 -355.6018957
349.8327759 -46.8319783 -357.0006045
350.5016722 -47.0588173 -358.4106153
351.1705686 -47.2914632 -359.7608540
351.8394649 -47.4965555 -360.9596241
352.5083612 -47.6885982 -362.3381921
353.1772575 -47.8896620 -363.5379260
353.8461538 -48.0805417 -364.9212867
354.5150502 -48.2541627 -366.2667728
355.1839465 -48.4271881 -367.6036361
355.8528428 -48.5847283 -368.9139660
356.5217391 -48.7867166 -370.1506541
357.1906355 -48.9099974 -371.4242955
357.8595318 -49.0589454 -373.0621948
358.5284281 -49.2813981 -374.7229817
359.1973244 -49.4895557 -375.9076119
359.8662207 -49.6450112 -377.3263936
360.5351171 -49.7894511 -378.2716163
361.2040134 -49.9188104 -379.4608570
361.8729097 -50.0738615 -380.8746332
362.5418060 -50.2372987 -382.2417842
363.2107023 -50.3374097 -383.2714588
363.8795987 -50.4882230 -384.7060315
364.5484950 -50.6699880 -386.1477208
365.2173913 -50.7304509 -387.3774169
365.8862876 -50.9115533 -388.7374291
366.5551839 -51.0393252 -389.6951234
367.2240803 -51.1566350 -391.2300133
367.8929766 -51.2555986 -392.5658937
368.5618729 -51.3878602 -393.4152192
369.2307692 -51.5013237 -394.8638933
369.8996656 -51.6550606 -396.1070872
370.5685619 -51.7624599 -397.6151310
371.2374582 -51.8437901 -398.7592064
371.9063545 -51.9588103 -400.1124372
372.5752508 -52.0955733 -401.0937196
373.2441472 -52.1771088 -402.6968920
373.9130435 -52.2411913 -403.4947697
374.5819398 -52.3782821 -404.9499867
375.2508361 -52.4477214 -406.2512869
375.9197324 -52.5910285 -407.8507598
376.5886288 -52.7569970 -408.6314764
377.2575251 -52.8203003 -410.5603585
377.9264214 -52.3882271 -411.4167830
378.5953177 -53.5116402 -411.6264917
379.2642140 -53.0762854 -413.6687169
379.9331104 -53.1460181 -414.4043873
380.6020067 -53.1668086 -415.6518440
381.2709030 -53.2492793 -417.3270618
381.9397993 -53.3718773 -418.7507393
382.6086957 -53.5072640 -419.9710092
383.2775920 -53.4849166 -421.2940209
383.9464883 -53.5862798 -422.0901540
384.6153846 -53.6922053 -423.6916267
385.2842809 -53.7005994 -424.7806753
385.9531773 -53.7741319 -425.8623386
386.6220736 -53.9004404 -427.5656350
387.2909699 -53.9978352 -428.1425896
387.9598662 -54.0328484 -429.2034239
388.6287625 -54.0820045 -430.6468605
389.2976589 -54.1950293 -431.4435101
389.9665552 -54.3142685 -432.7092320
390.6354515 -54.3339691 -434.0803772
391.3043478 -54.3162552 -435.2718298
391.9732441 -54.4267172 -436.6128817
392.6421405 -54.5042183 -437.4113890
393.3110368 -54.5255177 -438.4038926
393.9799331 -54.6432740 -438.7824075
394.6488294 -54.4117942 -441.0447754
395.3177258 -54.5501414 -442.0033769
395.9866221 -54.6173249 -442.5007902
396.6555184 -54.6899000 -445.3214679
397.3244147 -54.9480320 -446.1428805
397.9933110 -54.8177290 -446.9039160
398.6622074 -54.8747727 -448.5815551
399.3311037 -54.8826600 -448.9044405
400.0000000 -54.9737770 -450.7787498
