! ListType=Lin
# MHz S DB R 50
1100.0000000 -50.6041160 147.4159430
1100.6688963 -50.7752912 146.7881747
1101.3377926 -50.8438521 142.7136279
1102.0066890 -50.3552895 144.2089903
1102.6755853 -50.4643281 143.3648085
1103.3444816 -50.3644001 142.2136400
1104.0133779 -50.5971015 140.4622669
1104.6822742 -50.2830835 139.9423689
1105.3511706 -50.6164963 138.2665947
1106.0200669 -50.2375774 140.2715590
1106.6889632 -50.0795416 139.2964617
1107.3578595 -49.9102236 137.5897198
1108.0267559 -50.2031449 137.7080337
1108.6956522 -50.6099940 137.2381862
1109.3645485 -50.0920337 135.5580465
1110.0334448 -50.0834596 134.6476710
1110.7023411 -50.3436486 133.2315374
1111.3712375 -50.3230434 134.9313877
1112.0401338 -50.3194284 132.0843135
1112.7090301 -50.3237454 134.0405735
1113.3779264 -49.9794290 131.9531640
1114.0468227 -50.1180833 131.7050550
1114.7157191 -50.1254283 130.5066597
1115.3846154 -49.8555552 129.3509964
1116.0535117 -49.9588787 127.9548644
1116.7224080 -49.8074568 126.9446547
1117.3913043 -49.9318136 128.3847543
1118.0602007 -50.2573558 128.5518202
1118.7290970 -50.1127946 126.4280193
1119.3979933 -49.6465988 123.6028897
1120.0668896 -49.9110088 123.6895360
1120.7357860 -49.6375631 122.6434252
1121.4046823 -49.8605720 124.2199938
1122.0735786 -49.4913910 121.2753812
1122.7424749 -49.9157374 120.6993542
1123.4113712 -49.8833014 121.2234406
1124.0802676 -49.7931019 119.6155295
1124.7491639 -49.7363391 118.1093861
1125.4180602 -49.6855753 118.8981156
1126.0869565 -49.7193485 118.7390839
1126.7558528 -49.6096276 116.8371475
1127.4247492 -49.4762949 116.0129685
1128.0936455 -49.7736101 115.3038555
1128.7625418 -49.5196384 113.9747885
1129.4314381 -49.7212060 114.0952906
1130.1003344 -49.4921159 111.6661544
1130.7692308 -49.4105124 111.8159090
1131.4381271 -49.2956751 110.3888086
1132.1070234 -49.4050164 109.6783520
1132.7759197 -49.2923455 108.9670953
1133.4448161 -48.8397248 108.4034921
1134.1137124 -49.2696899 108.4271926
1134.7826087 -49.0695480 106.8738620
1135.4515050 -48.9744457 106.4465522
1136.1204013 -48.9633162 104.9911508
1136.7892977 -48.6274786 104.7062566
1137.4581940 -48.7462880 103.9587553
1138.1270903 -48.6387563 102.8581468
1138.7959866 -48.4286199 103.6500433
1139.4648829 -48.5073107 100.8669640
1140.1337793 -48.5608615 100.3669814
1140.8026756 -48.4645636  99.4166651
1141.4715719 -48.4506182 100.4221845
1142.1404682 -48.0960427  97.5027444
1142.8093645 -48.3155483  97.7395452
1143.4782609 -48.0211635  94.7286827
1144.1471572 -48.1258268  96.1002835
1144.8160535 -47.8401713  96.0605585
1145.4849498 -47.7182710  94.9497316
1146.1538462 -47.5714060  92.9132156
1146.8227425 -47.6175695  91.0112098
1147.4916388 -47.5734023  90.6051460
1148.1605351 -47.3783910  90.9103105
1148.8294314 -47.4371373  89.6291512
1149.4983278 -47.1481448  89.9838318
1150.1672241 -47.0556657  88.5820434
1150.8361204 -47.0103215  85.3908930
1151.5050167 -46.8386809  85.7078241
1152.1739130 -46.6976780  83.8001900
1152.8428094 -46.5505638  83.9391898
1153.5117057 -46.5351315  82.4448537
1154.1806020 -46.3966477  82.0347893
1154.8494983 -46.3841976  79.8245410
1155.5183946 -46.3003682  78.8881852
1156.1872910 -46.1473008  78.8153568
1156.8561873 -45.9324155  78.0289733
1157.5250836 -45.8891305  76.5005289
1158.1939799 -45.6421019  74.2252570
1158.8628763 -45.5019712  74.9409916
1159.5317726 -45.3028224  73.1864338
1160.2006689 -45.0992389  72.7007391
1160.8695652 -44.8567538  70.2017623
1161.5384615 -44.8788526  69.6947569
1162.2073579 -44.5248867  68.8514596
1162.8762542 -44.4781880  67.5265172
1163.5451505 -44.3077839  65.6621351
1164.2140468 -44.2360476  65.1124113
1164.8829431 -44.0335321  63.6190858
1165.5518395 -43.8342861  61.7901486
1166.2207358 -43.5592862  61.0779889
1166.8896321 -43.5426555  60.3246525
1167.5585284 -43.2443694  58.9175015
1168.2274247 -42.9579904  59.3340999
1168.8963211 -42.8345449  55.3273522
1169.5652174 -42.4719932  54.7203750
1170.2341137 -42.4747858  54.6196268
1170.9030100 -42.3007631  52.0338914
1171.5719064 -42.0169595  51.0933068
1172.2408027 -41.7429081  49.8068642
1172.9096990 -41.4835159  49.0157199
1173.5785953 -41.3531812  47.4254538
1174.2474916 -41.2202572  45.2966555
1174.9163880 -40.8164344  44.9897224
1175.5852843 -40.5799735  42.6402819
1176.2541806 -40.4015533  42.4765295
1176.9230769 -39.9850650  40.3880961
1177.5919732 -39.8564360  39.3464492
1178.2608696 -39.4824413  38.1398558
1178.9297659 -39.3146706  35.8892443
1179.5986622 -39.0132502  35.0096699
1180.2675585 -38.7826238  33.1823338
1180.9364548 -38.4283165  32.5123848
1181.6053512 -38.1739078  30.6797432
1182.2742475 -37.8607493  29.3729203
1182.9431438 -37.4573173  27.0411355
1183.6120401 -37.2225338  25.5907575
1184.2809365 -36.8577751  23.7785357
1184.9498328 -36.5318131  22.0200696
1185.6187291 -36.1399150  20.6755738
1186.2876254 -35.8076555  19.1011315
1186.9565217 -35.4175705  17.6574136
1187.6254181 -35.0677555  15.8166334
1188.2943144 -34.7218540  13.7520955
1188.9632107 -34.3481278  11.8060089
1189.6321070 -33.9024178   9.1186890
1190.3010033 -33.4704263   7.1381694
1190.9698997 -33.0233188   5.3236076
1191.6387960 -32.5675603   2.4210980
1192.3076923 -32.0795091  -0.0078024
1192.9765886 -31.6833265  -2.0217921
1193.6454849 -31.1405877  -4.7578831
1194.3143813 -30.6701412  -7.6918599
1194.9832776 -30.1156177 -10.9757296
1195.6521739 -29.5919451 -14.1397565
1196.3210702 -29.0284755 -17.5036272
1196.9899666 -28.5200797 -21.4572081
1197.6588629 -27.9621881 -25.7938045
1198.3277592 -27.4075028 -30.2426731
1198.9966555 -26.8155375 -35.3437371
1199.6655518 -26.3091165 -40.8113485
1200.3344482 -25.8083968 -46.6415837
1201.0033445 -25.3504377 -53.3132052
1201.6722408 -24.9867116 -60.2848009
1202.3411371 -24.6869227 -67.6691726
1203.0100334 -24.4933923 -75.3572734
1203.6789298 -24.4459900 -83.3187192
1204.3478261 -24.4920026 -91.0467308
1205.0167224 -24.6451108 -98.7296561
1205.6856187 -24.9174092 -105.9099834
1206.3545151 -25.2672678 -112.5605832
1207.0234114 -25.6483400 -118.7826445
1207.6923077 -26.1145015 -124.6592082
1208.3612040 -26.5446206 -129.6206182
1209.0301003 -27.0331737 -134.4427123
1209.6989967 -27.5016356 -138.7236390
1210.3678930 -27.9732191 -142.8379826
1211.0367893 -28.4135129 -146.7105664
1211.7056856 -28.8826480 -150.1659762
1212.3745819 -29.3374348 -153.1873309
1213.0434783 -29.7593095 -156.1160127
1213.7123746 -30.1749634 -159.0461245
1214.3812709 -30.5604628 -161.9751341
1215.0501672 -30.9224164 -164.2178027
1215.7190635 -31.3725315 -166.7832996
1216.3879599 -31.7005437 -168.7787505
1217.0568562 -32.0857413 -171.0409786
1217.7257525 -32.3547706 -173.0042295
1218.3946488 -32.7439538 -175.2847386
1219.0635452 -33.1175430 -177.3414594
1219.7324415 -33.3393650 -179.0350476
1220.4013378 -33.6608679 -180.9838349
1221.0702341 -33.9730698 -182.2897247
1221.7391304 -34.2366560 -184.2641997
1222.4080268 -34.5342538 -186.3339564
1223.0769231 -34.8269961 -188.1719827
1223.7458194 -34.9931270 -190.4922920
1224.4147157 -35.2690821 -191.8571579
1225.0836120 -35.5306415 -193.2539176
1225.7525084 -35.8172650 -195.2894830
1226.4214047 -36.1467527 -196.5629675
1227.0903010 -36.2479902 -197.5584249
1227.7591973 -36.3933261 -199.7911438
1228.4280936 -36.6713054 -200.5550753
1229.0969900 -36.9151508 -203.2118131
1229.7658863 -37.0967726 -203.8510938
1230.4347826 -37.3669524 -205.5673670
1231.1036789 -37.5373873 -207.4788450
1231.7725753 -37.7657470 -208.7686474
1232.4414716 -37.9766914 -210.3686223
1233.1103679 -38.2386064 -211.6725839
1233.7792642 -38.3335671 -214.2065169
1234.4481605 -38.5740368 -214.6687987
1235.1170569 -38.6777878 -215.9279379
1235.7859532 -38.9318617 -218.2537059
1236.4548495 -39.1550333 -219.3047724
1237.1237458 -39.1595783 -221.4813190
1237.7926421 -39.4590365 -222.4329751
1238.4615385 -39.7093412 -223.2979961
1239.1304348 -39.8185917 -225.6427044
1239.7993311 -40.0689406 -227.8461339
1240.4682274 -40.2265669 -228.2868988
1241.1371237 -40.2191272 -231.0628213
1241.8060201 -40.4281455 -231.6716868
1242.4749164 -40.5856845 -232.5097808
1243.1438127 -40.6249287 -234.9415751
1243.8127090 -40.8445198 -237.3011571
1244.4816054 -41.0300004 -238.1120630
1245.1505017 -41.1772668 -238.2190503
1245.8193980 -41.3698268 -240.0512414
1246.4882943 -41.4651469 -241.4665043
1247.1571906 -41.6049716 -244.3857201
1247.8260870 -41.7771843 -244.4098116
1248.4949833 -42.1024522 -246.2292354
1249.1638796 -42.0968486 -247.4749138
1249.8327759 -42.1654554 -250.8223288
1250.5016722 -42.4507525 -250.4857547
1251.1705686 -42.5230444 -252.2494701
1251.8394649 -42.4721026 -253.3574678
1252.5083612 -42.8134588 -255.8843452
1253.1772575 -42.8551329 -257.3017059
1253.8461538 -43.1804642 -257.7147125
1254.5150502 -42.9507819 -258.7655368
1255.1839465 -43.1512755 -261.0997848
1255.8528428 -43.3206463 -262.8745988
1256.5217391 -43.2542465 -263.3225486
1257.1906355 -43.3987034 -263.6499886
1257.8595318 -43.3760610 -267.7729254
1258.5284281 -43.7676020 -269.0977931
1259.1973244 -43.7406636 -267.0686007
1259.8662207 -44.1138683 -270.4836575
1260.5351171 -43.9535079 -270.8699603
1261.2040134 -44.0513488 -272.6596405
1261.8729097 -44.1557792 -273.8496481
1262.5418060 -44.4519413 -274.6719128
1263.2107023 -44.4308667 -277.0641811
1263.8795987 -44.7366974 -278.6599352
1264.5484950 -44.8519190 -277.2579868
1265.2173913 -44.6178034 -280.8998420
1265.8862876 -45.1378784 -282.2461057
1266.5551839 -44.9799418 -281.3754307
1267.2240803 -45.1302291 -283.7199210
1267.8929766 -45.1500482 -285.5971399
1268.5618729 -44.8688026 -287.5541933
1269.2307692 -45.5536366 -288.6745722
1269.8996656 -45.6575571 -289.0498872
1270.5685619 -45.4778074 -287.9485963
1271.2374582 -45.5666174 -289.8219212
1271.9063545 -45.4832414 -291.3903280
1272.5752508 -46.0535245 -289.8365463
1273.2441472 -46.1380578 -295.6842852
1273.9130435 -46.1805411 -294.5501050
1274.5819398 -46.1337501 -294.4455872
1275.2508361 -46.1668735 -296.4502535
1275.9197324 -46.1823603 -297.2602477
1276.5886288 -45.9254697 -295.3365645
1277.2575251 -46.6682119 -298.6610784
1277.9264214 -46.5919655 -302.4923316
1278.5953177 -46.9144405 -303.3921741
1279.2642140 -47.1317048 -301.6193104
1279.9331104 -46.7099328 -304.0318592
1280.6020067 -47.3898585 -301.9569507
1281.2709030 -47.2865897 -306.8511025
1281.9397993 -46.4665921 -304.4892117
1282.6086957 -47.4494892 -307.6751595
1283.2775920 -48.1870173 -308.2330476
1283.9464883 -47.4542780 -307.3422449
1284.6153846 -47.5851058 -307.2716629
1285.2842809 -48.2226902 -310.5274886
1285.9531773 -47.9105778 -311.4388773
1286.6220736 -48.2349225 -311.3235089
1287.2909699 -47.5729351 -312.7933926
1287.9598662 -47.9081961 -313.7773365
1288.6287625 -48.2889660 -314.5758019
1289.2976589 -48.0623727 -313.8399120
1289.9665552 -48.3351578 -314.0468745
1290.6354515 -47.8459666 -314.6056248
1291.3043478 -48.4434765 -314.8218631
1291.9732441 -49.1452910 -316.7040564
1292.6421405 -48.2267580 -318.3738449
1293.3110368 -48.5003817 -317.9062440
1293.9799331 -49.1794371 -315.3305832
1294.6488294 -48.1465779 -319.2802985
1295.3177258 -48.7321252 -320.6789507
1295.9866221 -48.2162914 -326.1347176
1296.6555184 -49.7113738 -318.7627790
1297.3244147 -49.8981619 -316.8964554
1297.9933110 -50.1528167 -311.8010148
1298.6622074 -51.0750854 -307.8223197
1299.3311037 -50.2341410 -309.9879989
1300.0000000 -49.6437921 -316.8855121
